
**** 03/22/20 19:56:34 *********** Evaluation PSpice (Nov 1999) **************

 * D:\University of Hail\2019-2020\Second\EE203 Electronic\Lab\ElectronicExp\app file\Experiment-5\Experiment-5.sch


 ****     CIRCUIT DESCRIPTION


******************************************************************************




* Schematics Version 9.1 - Web Update 1
* Sun Mar 22 19:56:33 2020



** Analysis setup **
.tran 20ns 3ms
.OP 


* From [PSPICE NETLIST] section of pspiceev.ini:
.lib "nom.lib"

.INC "Experiment-5.net"

**** INCLUDING Experiment-5.net ****
* Schematics Netlist *



R_R2         $N_0002 $N_0001  1k  
V_V2         $N_0002 0 DC 0 
+SIN 0 10V 1kHz 0 0 0
D_D9         $N_0001 $N_0003 D1N4002 
D_D10         0 $N_0004 D1N4002 
V_V6         $N_0003 0 0.7V
V_V7         $N_0004 $N_0001 0.7V

**** RESUMING Experiment-5.cir ****
.INC "Experiment-5.als"



**** INCLUDING Experiment-5.als ****
* Schematics Aliases *

.ALIASES
R_R2            R2(1=$N_0002 2=$N_0001 )
V_V2            V2(+=$N_0002 -=0 )
D_D9            D9(1=$N_0001 2=$N_0003 )
D_D10           D10(1=0 2=$N_0004 )
V_V6            V6(+=$N_0003 -=0 )
V_V7            V7(+=$N_0004 -=$N_0001 )
.ENDALIASES


**** RESUMING Experiment-5.cir ****
.probe


.END

**** 03/22/20 19:56:34 *********** Evaluation PSpice (Nov 1999) **************

 * D:\University of Hail\2019-2020\Second\EE203 Electronic\Lab\ElectronicExp\app file\Experiment-5\Experiment-5.sch


 ****     Diode MODEL PARAMETERS


******************************************************************************




               D1N4002         
          IS   14.110000E-09 
           N    1.984        
         ISR  100.000000E-12 
         IKF   94.81         
          BV  100.1          
         IBV   10            
          RS     .03389      
          TT    4.761000E-06 
         CJO   51.170000E-12 
          VJ     .3905       
           M     .2762       


**** 03/22/20 19:56:34 *********** Evaluation PSpice (Nov 1999) **************

 * D:\University of Hail\2019-2020\Second\EE203 Electronic\Lab\ElectronicExp\app file\Experiment-5\Experiment-5.sch


 ****     SMALL SIGNAL BIAS SOLUTION       TEMPERATURE =   27.000 DEG C


******************************************************************************



 NODE   VOLTAGE     NODE   VOLTAGE     NODE   VOLTAGE     NODE   VOLTAGE


($N_0001)-17.65E-15                   ($N_0002)    0.0000                       

($N_0003)     .7000                   ($N_0004)     .7000                   




    VOLTAGE SOURCE CURRENTS
    NAME         CURRENT

    V_V2        -1.765E-17
    V_V6        -1.424E-08
    V_V7        -1.424E-08

    TOTAL POWER DISSIPATION   1.99E-08  WATTS


**** 03/22/20 19:56:34 *********** Evaluation PSpice (Nov 1999) **************

 * D:\University of Hail\2019-2020\Second\EE203 Electronic\Lab\ElectronicExp\app file\Experiment-5\Experiment-5.sch


 ****     OPERATING POINT INFORMATION      TEMPERATURE =   27.000 DEG C


******************************************************************************






**** DIODES


NAME         D_D9        D_D10     
MODEL        D1N4002     D1N4002   
ID          -1.42E-08   -1.42E-08 
VD          -7.00E-01   -7.00E-01 
REQ          7.62E+10    7.62E+10 
CAP          3.85E-11    3.85E-11 
**** 03/22/20 19:56:34 *********** Evaluation PSpice (Nov 1999) **************

 * D:\University of Hail\2019-2020\Second\EE203 Electronic\Lab\ElectronicExp\app file\Experiment-5\Experiment-5.sch


 ****     INITIAL TRANSIENT SOLUTION       TEMPERATURE =   27.000 DEG C


******************************************************************************



 NODE   VOLTAGE     NODE   VOLTAGE     NODE   VOLTAGE     NODE   VOLTAGE


($N_0001)-17.65E-15                   ($N_0002)    0.0000                       

($N_0003)     .7000                   ($N_0004)     .7000                   




    VOLTAGE SOURCE CURRENTS
    NAME         CURRENT

    V_V2        -1.765E-17
    V_V6        -1.424E-08
    V_V7        -1.424E-08

    TOTAL POWER DISSIPATION   1.99E-08  WATTS



          JOB CONCLUDED

          TOTAL JOB TIME             .03
