
**** 04/06/20 18:54:49 *********** Evaluation PSpice (Nov 1999) **************

 * D:\University of Hail\2019-2020\Second\EE203 Electronic\Lab\ElectronicExp\app file\Experiment-6\Experiment6p2.sch


 ****     CIRCUIT DESCRIPTION


******************************************************************************




* Schematics Version 9.1 - Web Update 1
* Mon Apr 06 18:54:49 2020



** Analysis setup **
.DC DEC I_IB 100u 1m 20 
.OP 


* From [PSPICE NETLIST] section of pspiceev.ini:
.lib "nom.lib"

.INC "Experiment6p2.net"

**** INCLUDING Experiment6p2.net ****
* Schematics Netlist *



Q_Q1         $N_0002 $N_0001 0 Q2N3904
R_R1         $N_0003 $N_0001  10k  
R_R2         $N_0002 $N_0004  0.1k  
V_V2         $N_0004 0 5V
I_IB         0 $N_0003 DC 0A  

**** RESUMING Experiment6p2.cir ****
.INC "Experiment6p2.als"



**** INCLUDING Experiment6p2.als ****
* Schematics Aliases *

.ALIASES
Q_Q1            Q1(c=$N_0002 b=$N_0001 e=0 )
R_R1            R1(1=$N_0003 2=$N_0001 )
R_R2            R2(1=$N_0002 2=$N_0004 )
V_V2            V2(+=$N_0004 -=0 )
I_IB            IB(+=0 -=$N_0003 )
.ENDALIASES


**** RESUMING Experiment6p2.cir ****
.probe


.END

**** 04/06/20 18:54:49 *********** Evaluation PSpice (Nov 1999) **************

 * D:\University of Hail\2019-2020\Second\EE203 Electronic\Lab\ElectronicExp\app file\Experiment-6\Experiment6p2.sch


 ****     BJT MODEL PARAMETERS


******************************************************************************




               Q2N3904         
               NPN             
          IS    6.734000E-15 
          BF  416.4          
          NF    1            
         VAF   74.03         
         IKF     .06678      
         ISE    6.734000E-15 
          NE    1.259        
          BR     .7371       
          NR    1            
          RB   10            
          RC    1            
         CJE    4.493000E-12 
         MJE     .2593       
         CJC    3.638000E-12 
         MJC     .3085       
          TF  301.200000E-12 
         XTF    2            
         VTF    4            
         ITF     .4          
          TR  239.500000E-09 
         XTB    1.5          
          CN    2.42         
           D     .87         


**** 04/06/20 18:54:49 *********** Evaluation PSpice (Nov 1999) **************

 * D:\University of Hail\2019-2020\Second\EE203 Electronic\Lab\ElectronicExp\app file\Experiment-6\Experiment6p2.sch


 ****     SMALL SIGNAL BIAS SOLUTION       TEMPERATURE =   27.000 DEG C


******************************************************************************



 NODE   VOLTAGE     NODE   VOLTAGE     NODE   VOLTAGE     NODE   VOLTAGE


($N_0001)     .2222                   ($N_0002)    5.0000                       

($N_0003)     .2222                   ($N_0004)    5.0000                   




    VOLTAGE SOURCE CURRENTS
    NAME         CURRENT

    V_V2        -5.038E-11

    TOTAL POWER DISSIPATION   2.52E-10  WATTS


**** 04/06/20 18:54:49 *********** Evaluation PSpice (Nov 1999) **************

 * D:\University of Hail\2019-2020\Second\EE203 Electronic\Lab\ElectronicExp\app file\Experiment-6\Experiment6p2.sch


 ****     OPERATING POINT INFORMATION      TEMPERATURE =   27.000 DEG C


******************************************************************************






**** BIPOLAR JUNCTION TRANSISTORS


NAME         Q_Q1      
MODEL        Q2N3904   
IB          -2.22E-13 
IC           5.04E-11 
VBE          2.22E-01 
VBC         -4.78E+00 
VCE          5.00E+00 
BETADC      -2.27E+02 
GM           1.49E-09 
RPI          5.17E+09 
RX           1.00E+01 
RO           6.17E+11 
CBE          4.92E-12 
CBC          1.96E-12 
CJS          0.00E+00 
BETAAC       7.71E+00 
CBX/CBX2     0.00E+00 
FT/FT2       3.45E+01 



          JOB CONCLUDED

          TOTAL JOB TIME            0.00
